# Hz S RI R 50
2300000000.0	-0.9861449204803611	1.2076792203616953e-16
2303000000.0	-0.9872237457832155	-0.003856501280626113
2306000000.0	-0.9878606722381493	1.2097804102600021e-16
2309000000.0	-0.986075328047057	-0.0038520150858222984
2312000000.0	-0.9844961992545996	-0.0038458463724421565
2315000000.0	-0.9854423251144221	-0.0038495423267946487
2318000000.0	-0.9843723254100669	-0.0038453624531641626
2321000000.0	-0.984085816250311	1.2051575449572538e-16
2324000000.0	-0.9861639501822106	-1.7210021735643027e-12
2327000000.0	-0.9872555361838601	-0.0038566254668106377
2330000000.0	-0.987236706585617	-3.4458694864186446e-12
2333000000.0	-0.9870923363275883	1.2088394701464636e-16
2336000000.0	-0.9876950570867905	-0.0038583424210861354
2339000000.0	-0.9876415445528935	-0.0038581333757100873
2342000000.0	-0.9885671270399098	-0.0038617490792017075
2345000000.0	-0.986932835219535	-0.007710847410351361
2348000000.0	-0.986435233748372	-0.007706959665945214
2351000000.0	-0.9857372807106907	1.2071800056225633e-16
2354000000.0	-0.9863735724938217	1.2079592383180986e-16
2357000000.0	-0.9869006844887079	-0.003855239273841872
2360000000.0	-0.9873567437497439	1.2091632758496774e-16
2363000000.0	-0.9886569834304727	-0.003862100100332538
2366000000.0	-0.9889909742178309	-2.5889641821419746e-12
2369000000.0	-0.988722112432825	-0.007724826922936187
2372000000.0	-0.9898424033790312	-0.0038667308442714883
2375000000.0	-0.9900993189307815	-0.007735586960560842
2378000000.0	-0.9886394021886672	-0.007724180712901371
2381000000.0	-0.9876093713834991	-0.0038580076958245474
2384000000.0	-0.9873005239674915	-0.003856801216180465
2387000000.0	-0.9886343532088514	-0.0077241412689737
2390000000.0	-0.9869843280684888	1.7217989777573228e-12
2393000000.0	-0.9870541502871164	-5.168785552574704e-12
2396000000.0	-0.9866992624513125	1.208358093482054e-16
2399000000.0	-0.9886931350383213	-0.007724600524452947
2402000000.0	-0.9891375540859474	-0.0038639774066256526
2405000000.0	-0.988184407831695	-0.007720625863940396
2408000000.0	-0.9879297686583215	-0.007718636388432183
2411000000.0	-0.9869088727838429	-0.007710660179488161
2414000000.0	-0.9871669447357566	-0.007712676494046734
2417000000.0	-0.9885291941749288	-0.007723319660809661
2420000000.0	-0.9874683398193733	-0.00771503126380429
2423000000.0	-0.9876393499620969	-0.007716367367919983
2426000000.0	-0.9885513768596308	-0.003861687552529151
2429000000.0	-0.9878105238810848	-0.003858793467999976
2432000000.0	-0.9904030756627293	-0.007737960193800655
2435000000.0	-0.9902634518997311	-0.00386837562921433
2438000000.0	-0.9912260286404586	-0.007744389877227967
2441000000.0	-0.9908949454746212	-0.007741803142457086
2444000000.0	-0.9904871847219906	-0.007738617327507418
2447000000.0	-0.9887216378923998	-0.007724823212101318
2450000000.0	-0.9887966370222644	-0.007725409184460833
2453000000.0	-0.9878439527125553	-0.007717965920461232
2456000000.0	-0.986706624841767	-0.011563914185005955
2459000000.0	-0.98741463322251	-0.011572211819728112
2462000000.0	-0.9870158604019222	-0.007711496075984501
2465000000.0	-0.9899671615931668	-1.7276393408462448e-12
2468000000.0	-0.9898813748352421	1.2122550572275606e-16
2471000000.0	-0.9907716107496093	-0.003870360706322847
2474000000.0	-0.9897900518261233	-0.007733170669923078
2477000000.0	-0.9913528036206628	-0.007745380356534244
2480000000.0	-0.9884587736627095	-0.007722769472997306
2483000000.0	-0.9894212353883012	-0.007730289125628797
2486000000.0	-0.9888860234936304	-0.007726107545276677
2489000000.0	-0.989304876343229	-0.011594364925291062
2492000000.0	-0.989182863972822	-0.011592934974129637
2495000000.0	-0.988176569406321	-0.007720564622791144
2498000000.0	-0.9887618267198498	-0.007725137205012485
2501000000.0	-0.9883231664056045	-0.007721709971228973
2504000000.0	-0.9898939594896771	-0.007733982492577249
2507000000.0	-0.9899120625853842	-0.011601480971150642
2510000000.0	-0.9920301990611067	-0.007750672813652524
2513000000.0	-0.9908331118507105	-0.015483585220849642
2516000000.0	-0.989937420089507	-0.011601778152673624
2519000000.0	-0.9892765295901659	-0.011594032709603744
2522000000.0	-0.9880559097060035	-0.011579727407077097
2525000000.0	-0.9916568920411736	-0.015496458297858345
2528000000.0	-0.9905729840834507	-0.011609226778554199
2531000000.0	-0.9900341922483346	-0.007735078115848677
2534000000.0	-0.9917212437793285	-0.011622684047654316
2537000000.0	-0.9902692368298435	-0.007736914520704751
2540000000.0	-0.9898567169565864	-0.011600832329594383
2543000000.0	-0.990186425204149	-0.007736267511499848
2546000000.0	-0.9899947206962575	-0.01160244970012659
2549000000.0	-0.9919700453148111	-0.007750202829091073
2552000000.0	-0.9903852076351572	-0.011607026086374097
2555000000.0	-0.9912469889713551	-0.011617125912553995
2558000000.0	-0.9903208959293031	-0.011606272378831299
2561000000.0	-0.9904252722818215	-0.011607495630630557
2564000000.0	-0.9903034219427324	-0.015475307840946367
2567000000.0	-0.9900137681481784	-0.015470781486275502
2570000000.0	-0.9889960765945942	-0.011590745875296241
2573000000.0	-0.9916336449552967	-0.011621657408032438
2576000000.0	-0.9913658660505668	-0.003872682113251953
2579000000.0	-0.992393166980578	-0.01938584252086203
2582000000.0	-0.9899939044744449	-0.003867322657485216
2585000000.0	-0.9928248524839828	-0.019394275250977262
2588000000.0	-0.9904626821695534	-0.015477796577463164
2591000000.0	-0.9904990212504988	-0.015478364442449018
2594000000.0	-0.9909667627252321	-0.015485673757679744
2597000000.0	-0.9910323931540632	-0.015486699353539952
2600000000.0	-0.9916641395944004	-0.015496571550713831
